hour,t(sec),"P1 (kW)","Q1 (kvar)","P2 (kW)","Q2 (kvar)","P3 (kW)","Q3 (kvar)","P4 (kW)","Q4 (kvar)"
0, 600.00000, 0, 0, 0, 0, 0, 0, 0, 0
0, 1200.00000, 0, 0, 0, 0, 0, 0, 0, 0
0, 1800.00000, 0, 0, 0, 0, 0, 0, 0, 0
0, 2400.00000, 0, 0, 0, 0, 0, 0, 0, 0
0, 3000.00000, 0, 0, 0, 0, 0, 0, 0, 0
1, 0.00000, 0, 0, 0, 0, 0, 0, 0, 0
1, 600.00000, 0, 0, 0, 0, 0, 0, 0, 0
1, 1200.00000, 0, 0, 0, 0, 0, 0, 0, 0
1, 1800.00000, 0, 0, 0, 0, 0, 0, 0, 0
1, 2400.00000, 0, 0, 0, 0, 0, 0, 0, 0
1, 3000.00000, 0, 0, 0, 0, 0, 0, 0, 0
2, 0.00000, 0, 0, 0, 0, 0, 0, 0, 0
2, 600.00000, 0, 0, 0, 0, 0, 0, 0, 0
2, 1200.00000, 0, 0, 0, 0, 0, 0, 0, 0
2, 1800.00000, 0, 0, 0, 0, 0, 0, 0, 0
2, 2400.00000, 0, 0, 0, 0, 0, 0, 0, 0
2, 3000.00000, 0, 0, 0, 0, 0, 0, 0, 0
3, 0.00000, 0, 0, 0, 0, 0, 0, 0, 0
3, 600.00000, 0, 0, 0, 0, 0, 0, 0, 0
3, 1200.00000, 0, 0, 0, 0, 0, 0, 0, 0
3, 1800.00000, 0, 0, 0, 0, 0, 0, 0, 0
3, 2400.00000, 0, 0, 0, 0, 0, 0, 0, 0
3, 3000.00000, 0, 0, 0, 0, 0, 0, 0, 0
4, 0.00000, 0, 0, 0, 0, 0, 0, 0, 0
4, 600.00000, 0, 0, 0, 0, 0, 0, 0, 0
4, 1200.00000, 0, 0, 0, 0, 0, 0, 0, 0
4, 1800.00000, 0, 0, 0, 0, 0, 0, 0, 0
4, 2400.00000, 0, 0, 0, 0, 0, 0, 0, 0
4, 3000.00000, 0, 0, 0, 0, 0, 0, 0, 0
5, 0.00000, 0, 0, 0, 0, 0, 0, 0, 0
5, 600.00000, 0, 0, 0, 0, 0, 0, 0, 0
5, 1200.00000, 0, 0, 0, 0, 0, 0, 0, 0
5, 1800.00000, 0, 0, 0, 0, 0, 0, 0, 0
5, 2400.00000, 0, 0, 0, 0, 0, 0, 0, 0
5, 3000.00000, 0, 0, 0, 0, 0, 0, 0, 0
6, 0.00000, 0, 0, 0, 0, 0, 0, 0, 0
6, 600.00000, 0, 0, 0, 0, 0, 0, 0, 0
6, 1200.00000, 0, 0, 0, 0, 0, 0, 0, 0
6, 1800.00000, 0, 0, 0, 0, 0, 0, 0, 0
6, 2400.00000, 0, 0, 0, 0, 0, 0, 0, 0
6, 3000.00000, 0, 0, 0, 0, 0, 0, 0, 0
7, 0.00000, 0, 0, 0, 0, 0, 0, 0, 0
7, 600.00000, 0, 0, 0, 0, 0, 0, 0, 0
7, 1200.00000, 0, 0, 0, 0, 0, 0, 0, 0
7, 1800.00000, -0.268122, 3.6063E-7, -0.268122, -4.62219E-7, -0.26812, 3.61535E-7, 0, 0
7, 2400.00000, -0.268123, -1.42526E-7, -0.268123, 1.77463E-7, -0.268123, -1.03177E-7, 0, 0
7, 3000.00000, -0.268122, -4.444E-7, -0.268123, 5.67176E-7, -0.268125, -4.33984E-7, 0, 0
8, 0.00000, -0.268123, 1.83407E-7, -0.268123, -1.94226E-7, -0.268122, 1.87781E-7, 0, 0
8, 600.00000, -0.268122, -3.53933E-7, -0.268122, 3.76365E-7, -0.268124, -3.01247E-7, 0, 0
8, 1200.00000, -0.268123, -1.24054E-7, -0.268123, 1.20374E-7, -0.268123, -9.34693E-8, 0, 0
8, 1800.00000, -0.268123, -1.00129E-7, -0.268123, 1.86076E-7, -0.268124, -1.58045E-7, 0, 0
8, 2400.00000, -0.386257, -9.57766E-7, -0.386258, 1.06673E-6, -0.386261, -7.02408E-7, 0, 0
8, 3000.00000, -0.386259, 1.97727E-7, -0.386259, 3.71786E-10, -0.386259, 3.3393E-8, 0, 0
9, 0.00000, -0.386259, 9.05755E-8, -0.386259, -2.91436E-7, -0.386258, 1.06155E-7, 0, 0
9, 600.00000, -0.38626, 9.51952E-7, -0.386259, -1.1369E-6, -0.386255, 4.98948E-7, 0, 0
9, 1200.00000, -0.38626, 7.48041E-7, -0.386259, -9.91717E-7, -0.386256, 3.92634E-7, 0, 0
9, 1800.00000, -0.630892, -1.37076E-6, -0.630895, 1.28353E-6, -0.630898, 1.6992E-9, 0, 0
9, 2400.00000, -0.630902, 2.00896E-6, -0.6309, -1.72404E-6, -0.630896, -3.52299E-7, 0, 0
9, 3000.00000, -0.630901, -1.63252E-7, -0.630901, 1.56026E-10, -0.630901, 1.4154E-7, 0, 0
10, 0.00000, -0.6309, -1.28379E-6, -0.630902, 1.81247E-6, -0.630904, 4.19444E-7, 0, 0
10, 600.00000, -0.630899, -1.84963E-6, -0.630902, 1.52987E-6, -0.630905, 3.05927E-7, 0, 0
10, 1200.00000, -0.630901, -2.09847E-7, -0.630901, 2.19574E-7, -0.630901, 5.3777E-8, 0, 0
10, 1800.00000, -0.630903, 1.5715E-6, -0.6309, -1.98401E-6, -0.630896, -2.58694E-7, 0, 0
10, 2400.00000, -0.989188, -2.36099E-6, -0.989193, 2.44662E-6, -0.989194, 1.48193E-6, 0, 0
10, 3000.00000, -0.989214, -3.71049E-6, -0.989222, 7.14852E-7, -0.98922, 3.27936E-6, 0, 0
11, 0.00000, -0.989219, 5.11113E-7, -0.989216, 1.43346E-6, -0.989216, -2.45346E-8, 0, 0
11, 600.00000, -0.989219, 1.99258E-6, -0.989216, -1.75219E-6, -0.989216, -2.15277E-6, 0, 0
11, 1200.00000, -0.989222, 5.83439E-6, -0.989215, -6.47933E-6, -0.98921, -5.74322E-6, 0, 0
11, 1800.00000, -1.08905, -3.45237E-6, -1.08905, 2.997E-6, -1.08905, 3.65723E-6, 0, 0
11, 2400.00000, -1.08906, 1.22674E-7, -1.08906, 9.5526E-7, -1.08906, 2.50182E-7, 0, 0
11, 3000.00000, -1.08906, -1.45267E-6, -1.08906, -1.81448E-6, -1.08906, 2.66093E-8, 0, 0
12, 0.00000, -1.08906, 7.32923E-6, -1.08906, -5.91763E-6, -1.08905, -6.88083E-6, 0, 0
12, 600.00000, -1.08906, 5.40151E-7, -1.08906, -2.24106E-8, -1.08906, -3.48379E-7, 0, 0
12, 1200.00000, -1.08906, 3.92602E-7, -1.08906, 4.70254E-7, -1.08906, 1.43973E-7, 0, 0
12, 1800.00000, -1.08906, -5.13905E-6, -1.08906, 4.84657E-6, -1.08906, 5.88838E-6, 0, 0
12, 2400.00000, -1.15655, -4.92391E-6, -1.15656, 2.76539E-6, -1.15656, 6.42246E-6, 0, 0
12, 3000.00000, -1.15656, 1.78273E-6, -1.15656, 6.05566E-7, -1.15656, -1.03071E-6, 0, 0
13, 0.00000, -1.15656, 7.9039E-8, -1.15656, 1.88123E-6, -1.15656, 7.89036E-7, 0, 0
13, 600.00000, -1.15656, 3.46525E-6, -1.15656, -3.29161E-6, -1.15656, -4.07725E-6, 0, 0
13, 1200.00000, -1.15656, 1.37255E-6, -1.15656, -1.45221E-6, -1.15656, -1.70225E-6, 0, 0
13, 1800.00000, -1.15656, -5.32415E-6, -1.15657, 3.76329E-6, -1.15656, 7.64414E-6, 0, 0
13, 2400.00000, -1.15656, -3.57611E-7, -1.15656, 3.55493E-6, -1.15656, 2.58105E-6, 0, 0
13, 3000.00000, -1.15656, 3.13265E-6, -1.15656, -2.27586E-6, -1.15656, -3.87568E-6, 0, 0
14, 0.00000, -1.15656, -5.8163E-7, -1.15656, 3.87574E-7, -1.15656, 1.17993E-6, 0, 0
14, 600.00000, -1.15656, -2.21925E-6, -1.15656, 3.35321E-6, -1.15656, 2.94764E-6, 0, 0
14, 1200.00000, -1.15656, -3.93468E-7, -1.15656, 1.33654E-6, -1.15656, 8.78725E-7, 0, 0
14, 1800.00000, -1.15656, 1.80986E-6, -1.15656, -1.81798E-6, -1.15656, -1.98643E-6, 0, 0
14, 2400.00000, -1.17169, 4.06471E-7, -1.17168, 8.45707E-7, -1.17168, -1.96048E-7, 0, 0
14, 3000.00000, -1.17169, 8.84675E-7, -1.17169, -2.85217E-7, -1.17169, -9.78139E-7, 0, 0
15, 0.00000, -1.17169, -9.91625E-7, -1.17169, 1.46983E-6, -1.17169, 1.48236E-6, 0, 0
15, 600.00000, -1.17169, -8.33191E-7, -1.17169, -6.69658E-7, -1.17169, 6.08388E-7, 0, 0
15, 1200.00000, -1.17169, -2.40595E-6, -1.17169, 7.72087E-7, -1.17169, 2.89952E-6, 0, 0
15, 1800.00000, -1.13766, 4.1295E-7, -1.13766, -7.21039E-8, -1.13766, -2.42899E-7, 0, 0
15, 2400.00000, -1.13766, 7.69412E-7, -1.13766, -7.21492E-7, -1.13766, -9.22742E-7, 0, 0
15, 3000.00000, -1.13766, -1.65263E-6, -1.13766, 1.45783E-6, -1.13766, 2.68577E-6, 0, 0
16, 0.00000, -1.13766, 2.00791E-6, -1.13766, -1.1427E-6, -1.13766, -2.60505E-6, 0, 0
16, 600.00000, -1.13766, 1.47546E-6, -1.13766, -1.19251E-6, -1.13766, -2.33745E-6, 0, 0
16, 1200.00000, -1.13766, 7.8693E-7, -1.13766, 2.8825E-7, -1.13766, -1.04061E-6, 0, 0
16, 1800.00000, -1.13766, -7.101E-7, -1.13766, 3.4769E-7, -1.13766, 9.98718E-7, 0, 0
16, 2400.00000, -0.902939, -2.48103E-7, -0.902938, -4.46362E-7, -0.902938, 5.97077E-7, 0, 0
16, 3000.00000, -0.902925, 1.37545E-6, -0.902922, -9.5123E-7, -0.902922, -1.1159E-6, 0, 0
17, 0.00000, -0.902924, 5.54318E-7, -0.902923, -6.33944E-7, -0.902923, -5.64004E-7, 0, 0
17, 600.00000, -0.902922, -8.29745E-7, -0.902925, -7.15092E-7, -0.902924, 1.52945E-7, 0, 0
17, 1200.00000, -0.902924, 6.08984E-7, -0.902922, -3.64062E-7, -0.902922, -5.18839E-7, 0, 0
17, 1800.00000, -0.526011, -2.14961E-7, -0.52601, 1.82243E-7, -0.52601, 3.40801E-7, 0, 0
17, 2400.00000, -0.526002, -5.73029E-7, -0.526003, 3.21745E-7, -0.526004, -4.687E-8, 0, 0
17, 3000.00000, -0.526003, 5.91158E-7, -0.526002, -7.11092E-7, -0.526001, 7.94343E-8, 0, 0
18, 0.00000, -0.526003, 7.39684E-7, -0.526002, -9.69184E-7, -0.526, 9.43102E-8, 0, 0
18, 600.00000, -0.526002, -1.6427E-7, -0.526002, -2.42867E-7, -0.526003, -8.76353E-8, 0, 0
18, 1200.00000, -0.526002, -5.97861E-7, -0.526003, 2.32643E-7, -0.526004, -2.12902E-8, 0, 0
18, 1800.00000, -0.526003, -5.43324E-8, -0.526003, 1.49226E-7, -0.526003, 4.26455E-8, 0, 0
18, 2400.00000, 0, 0, 0, 0, 0, 0, 0, 0
18, 3000.00000, 0, 0, 0, 0, 0, 0, 0, 0
19, 0.00000, 0, 0, 0, 0, 0, 0, 0, 0
19, 600.00000, 0, 0, 0, 0, 0, 0, 0, 0
19, 1200.00000, 0, 0, 0, 0, 0, 0, 0, 0
19, 1800.00000, 0, 0, 0, 0, 0, 0, 0, 0
19, 2400.00000, 0, 0, 0, 0, 0, 0, 0, 0
19, 3000.00000, 0, 0, 0, 0, 0, 0, 0, 0
20, 0.00000, 0, 0, 0, 0, 0, 0, 0, 0
20, 600.00000, 0, 0, 0, 0, 0, 0, 0, 0
20, 1200.00000, 0, 0, 0, 0, 0, 0, 0, 0
20, 1800.00000, 0, 0, 0, 0, 0, 0, 0, 0
20, 2400.00000, 0, 0, 0, 0, 0, 0, 0, 0
20, 3000.00000, 0, 0, 0, 0, 0, 0, 0, 0
21, 0.00000, 0, 0, 0, 0, 0, 0, 0, 0
21, 600.00000, 0, 0, 0, 0, 0, 0, 0, 0
21, 1200.00000, 0, 0, 0, 0, 0, 0, 0, 0
21, 1800.00000, 0, 0, 0, 0, 0, 0, 0, 0
21, 2400.00000, 0, 0, 0, 0, 0, 0, 0, 0
21, 3000.00000, 0, 0, 0, 0, 0, 0, 0, 0
22, 0.00000, 0, 0, 0, 0, 0, 0, 0, 0
22, 600.00000, 0, 0, 0, 0, 0, 0, 0, 0
22, 1200.00000, 0, 0, 0, 0, 0, 0, 0, 0
22, 1800.00000, 0, 0, 0, 0, 0, 0, 0, 0
22, 2400.00000, 0, 0, 0, 0, 0, 0, 0, 0
22, 3000.00000, 0, 0, 0, 0, 0, 0, 0, 0
23, 0.00000, 0, 0, 0, 0, 0, 0, 0, 0
23, 600.00000, 0, 0, 0, 0, 0, 0, 0, 0
23, 1200.00000, 0, 0, 0, 0, 0, 0, 0, 0
23, 1800.00000, 0, 0, 0, 0, 0, 0, 0, 0
23, 2400.00000, 0, 0, 0, 0, 0, 0, 0, 0
23, 3000.00000, 0, 0, 0, 0, 0, 0, 0, 0
24, 0.00000, 0, 0, 0, 0, 0, 0, 0, 0
