hour,t(sec),V1,VAngle1,V2,VAngle2,I1,IAngle1,I2,IAngle2
0, 600.00000, 138.299, -120.027, 0, 0, 8.18604, -131.505, 8.18604, 48.4951
0, 1200.00000, 138.306, -120.027, 0, 0, 7.9388, -131.505, 7.9388, 48.4949
0, 1800.00000, 138.305, -120.026, 0, 0, 7.95944, -131.505, 7.95944, 48.4954
0, 2400.00000, 138.309, -120.022, 0, 0, 7.62965, -131.5, 7.62965, 48.4997
0, 3000.00000, 138.316, -120.022, 0, 0, 7.36869, -131.501, 7.36869, 48.4994
1, 0.00000, 138.318, -120.023, 0, 0, 7.28575, -131.502, 7.28575, 48.4984
1, 600.00000, 138.318, -120.021, 0, 0, 7.20803, -131.499, 7.20803, 48.5006
1, 1200.00000, 138.327, -120.022, 0, 0, 6.90158, -131.501, 6.90158, 48.4994
1, 1800.00000, 138.327, -120.02, 0, 0, 6.83011, -131.498, 6.83011, 48.502
1, 2400.00000, 138.331, -120.013, 0, 0, 6.52608, -131.491, 6.52608, 48.5085
1, 3000.00000, 138.328, -120.007, 0, 0, 6.4561, -131.485, 6.4561, 48.5146
2, 0.00000, 138.324, -120.012, 0, 0, 6.68591, -131.491, 6.68591, 48.5093
2, 600.00000, 138.334, -120.018, 0, 0, 6.45145, -131.497, 6.45145, 48.5035
2, 1200.00000, 138.338, -120.022, 0, 0, 6.37505, -131.5, 6.37505, 48.5001
2, 1800.00000, 138.339, -120.017, 0, 0, 6.23027, -131.496, 6.23027, 48.5044
2, 2400.00000, 138.338, -120.016, 0, 0, 6.27966, -131.495, 6.27966, 48.5054
2, 3000.00000, 138.321, -120.016, 0, 0, 6.84673, -131.494, 6.84673, 48.5056
3, 0.00000, 138.329, -120.017, 0, 0, 6.58399, -131.495, 6.58399, 48.5045
3, 600.00000, 138.333, -120.018, 0, 0, 6.46195, -131.497, 6.46195, 48.5033
3, 1200.00000, 138.329, -120.024, 0, 0, 6.75083, -131.503, 6.75083, 48.4974
3, 1800.00000, 138.308, -120.036, 0, 0, 7.78279, -131.514, 7.78279, 48.4858
3, 2400.00000, 138.306, -120.034, 0, 0, 7.87318, -131.513, 7.87318, 48.4874
3, 3000.00000, 138.319, -120.022, 0, 0, 7.12118, -131.501, 7.12118, 48.4993
4, 0.00000, 138.329, -120.017, 0, 0, 6.68774, -131.495, 6.68774, 48.5049
4, 600.00000, 138.322, -120.014, 0, 0, 6.92318, -131.492, 6.92318, 48.5077
4, 1200.00000, 138.315, -120.019, 0, 0, 7.32806, -131.497, 7.32806, 48.503
4, 1800.00000, 138.313, -120.022, 0, 0, 7.49739, -131.501, 7.49739, 48.4993
4, 2400.00000, 138.303, -120.026, 0, 0, 7.92555, -131.505, 7.92555, 48.4953
4, 3000.00000, 138.283, -120.027, 0, 0, 8.68704, -131.506, 8.68704, 48.4943
5, 0.00000, 138.253, -120.02, 0, 0, 9.74001, -131.498, 9.74001, 48.5019
5, 600.00000, 138.232, -120.002, 0, 0, 10.4858, -131.48, 10.4858, 48.5196
5, 1200.00000, 138.138, -120.049, 0, 0, 15.3107, -131.527, 15.3107, 48.473
5, 1800.00000, 138.115, -120.071, 0, 0, 16.8234, -131.549, 16.8234, 48.4507
5, 2400.00000, 138.075, -120.08, 0, 0, 18.4794, -131.558, 18.4794, 48.442
5, 3000.00000, 138.041, -120.067, 0, 0, 19.7489, -131.545, 19.7489, 48.4548
6, 0.00000, 138.009, -120.06, 0, 0, 20.7317, -131.538, 20.7317, 48.4616
6, 600.00000, 137.977, -120.055, 0, 0, 21.7287, -131.533, 21.7287, 48.4666
6, 1200.00000, 137.947, -120.063, 0, 0, 23.2062, -131.542, 23.2062, 48.4584
6, 1800.00000, 138.014, -120.005, 0, 0, 19.4337, -131.484, 19.4337, 48.516
6, 2400.00000, 137.978, -119.983, 0, 0, 20.5006, -131.462, 20.5006, 48.5381
6, 3000.00000, 137.966, -120.021, 0, 0, 21.7451, -131.499, 21.7451, 48.5008
7, 0.00000, 138.026, -120.017, 0, 0, 19.4776, -131.495, 19.4776, 48.505
7, 600.00000, 138.009, -120.027, 0, 0, 20.197, -131.505, 20.197, 48.4949
7, 1200.00000, 137.978, -120.045, 0, 0, 21.9035, -131.523, 21.9035, 48.477
7, 1800.00000, 138.028, -120.006, 0, 0, 20.2845, -131.484, 20.2845, 48.5157
7, 2400.00000, 138.034, -120.01, 0, 0, 20.2462, -131.488, 20.2462, 48.5119
7, 3000.00000, 138.016, -120.032, 0, 0, 21.3796, -131.51, 21.3796, 48.49
8, 0.00000, 138.064, -120.011, 0, 0, 19.12, -131.489, 19.12, 48.5107
8, 600.00000, 138.016, -120.038, 0, 0, 21.5681, -131.516, 21.5681, 48.4835
8, 1200.00000, 138, -120.048, 0, 0, 22.4552, -131.526, 22.4552, 48.4738
8, 1800.00000, 138.017, -120.047, 0, 0, 21.7133, -131.526, 21.7133, 48.4743
8, 2400.00000, 138.028, -120.071, 0, 0, 22.3957, -131.549, 22.3957, 48.451
8, 3000.00000, 138.074, -120.053, 0, 0, 20.2348, -131.532, 20.2348, 48.4682
9, 0.00000, 138.018, -120.064, 0, 0, 22.454, -131.542, 22.454, 48.4576
9, 600.00000, 137.996, -120.046, 0, 0, 22.8254, -131.524, 22.8254, 48.4757
9, 1200.00000, 137.974, -120.035, 0, 0, 23.5086, -131.514, 23.5086, 48.4864
9, 1800.00000, 137.996, -120.037, 0, 0, 23.8782, -131.515, 23.8782, 48.4846
9, 2400.00000, 137.993, -120.015, 0, 0, 23.3509, -131.494, 23.3509, 48.5061
9, 3000.00000, 138.003, -120.014, 0, 0, 23.1617, -131.492, 23.1617, 48.5078
10, 0.00000, 138.046, -120.018, 0, 0, 21.6337, -131.496, 21.6337, 48.5039
10, 600.00000, 138.034, -120.048, 0, 0, 22.7152, -131.526, 22.7152, 48.4742
10, 1200.00000, 138.038, -120.05, 0, 0, 22.63, -131.528, 22.63, 48.4721
10, 1800.00000, 138.028, -120.031, 0, 0, 22.8709, -131.509, 22.8709, 48.4907
10, 2400.00000, 138.077, -120.021, 0, 0, 22.4824, -131.5, 22.4824, 48.5004
10, 3000.00000, 138.035, -120.061, 0, 0, 24.9135, -131.539, 24.9135, 48.4606
11, 0.00000, 138.088, -120.042, 0, 0, 22.573, -131.52, 22.573, 48.48
11, 600.00000, 138.081, -120.028, 0, 0, 22.5866, -131.507, 22.5866, 48.4933
11, 1200.00000, 138.031, -120.006, 0, 0, 24.0646, -131.485, 24.0646, 48.5152
11, 1800.00000, 138.051, -120.018, 0, 0, 23.9896, -131.496, 23.9896, 48.5042
11, 2400.00000, 138.074, -120.01, 0, 0, 22.9418, -131.488, 22.9418, 48.512
11, 3000.00000, 138.024, -120.031, 0, 0, 25.4374, -131.509, 25.4374, 48.491
12, 0.00000, 138, -120.002, 0, 0, 25.574, -131.48, 25.574, 48.5197
12, 600.00000, 138.009, -119.996, 0, 0, 25.1373, -131.475, 25.1373, 48.5255
12, 1200.00000, 138.017, -119.993, 0, 0, 24.6509, -131.471, 24.6509, 48.5288
12, 1800.00000, 138.045, -120.014, 0, 0, 24.0171, -131.492, 24.0171, 48.5079
12, 2400.00000, 138.041, -120.043, 0, 0, 24.9192, -131.521, 24.9192, 48.4791
12, 3000.00000, 138.066, -120.027, 0, 0, 23.5346, -131.506, 23.5346, 48.4943
13, 0.00000, 138.101, -120.017, 0, 0, 21.9572, -131.496, 21.9572, 48.5044
13, 600.00000, 138.074, -120.008, 0, 0, 22.6712, -131.486, 22.6712, 48.5136
13, 1200.00000, 138.062, -120.005, 0, 0, 23.0313, -131.483, 23.0313, 48.5169
13, 1800.00000, 138.069, -120.036, 0, 0, 23.2583, -131.514, 23.2583, 48.4863
13, 2400.00000, 138.125, -120.025, 0, 0, 20.7624, -131.503, 20.7624, 48.4966
13, 3000.00000, 138.116, -120.01, 0, 0, 20.7499, -131.489, 20.7499, 48.5114
14, 0.00000, 138.11, -120.017, 0, 0, 20.9818, -131.495, 20.9818, 48.505
14, 600.00000, 138.16, -120.014, 0, 0, 19.2141, -131.492, 19.2141, 48.5082
14, 1200.00000, 138.183, -120.009, 0, 0, 18.2987, -131.488, 18.2987, 48.5122
14, 1800.00000, 138.16, -120.007, 0, 0, 18.9607, -131.486, 18.9607, 48.5144
14, 2400.00000, 138.182, -119.998, 0, 0, 18.0026, -131.476, 18.0026, 48.5237
14, 3000.00000, 138.186, -119.992, 0, 0, 17.6961, -131.47, 17.6961, 48.5299
15, 0.00000, 138.204, -119.992, 0, 0, 17.0552, -131.47, 17.0552, 48.5297
15, 600.00000, 138.183, -120.003, 0, 0, 18.1025, -131.481, 18.1025, 48.5188
15, 1200.00000, 138.176, -120.019, 0, 0, 18.7823, -131.497, 18.7823, 48.5025
15, 1800.00000, 138.175, -120.018, 0, 0, 18.6141, -131.497, 18.6141, 48.5034
15, 2400.00000, 138.167, -120.016, 0, 0, 18.834, -131.495, 18.834, 48.5054
15, 3000.00000, 138.177, -120.025, 0, 0, 18.6212, -131.504, 18.6212, 48.4962
16, 0.00000, 138.177, -120.013, 0, 0, 18.3322, -131.491, 18.3322, 48.5091
16, 600.00000, 138.177, -120.002, 0, 0, 18.2079, -131.48, 18.2079, 48.5197
16, 1200.00000, 138.198, -119.989, 0, 0, 17.2123, -131.468, 17.2123, 48.5323
16, 1800.00000, 138.194, -119.995, 0, 0, 17.4647, -131.474, 17.4647, 48.5262
16, 2400.00000, 138.154, -120.017, 0, 0, 18.3649, -131.495, 18.3649, 48.505
16, 3000.00000, 138.162, -120.002, 0, 0, 17.8251, -131.481, 17.8251, 48.5194
17, 0.00000, 138.16, -119.997, 0, 0, 17.8584, -131.476, 17.8584, 48.5242
17, 600.00000, 138.116, -120.016, 0, 0, 19.9029, -131.495, 19.9029, 48.5054
17, 1200.00000, 138.127, -120.007, 0, 0, 19.3984, -131.486, 19.3984, 48.5144
17, 1800.00000, 138.104, -120.031, 0, 0, 19.2303, -131.509, 19.2303, 48.4905
17, 2400.00000, 138.091, -120.046, 0, 0, 20.2352, -131.524, 20.2352, 48.4757
17, 3000.00000, 138.082, -120.037, 0, 0, 20.3565, -131.515, 20.3565, 48.485
18, 0.00000, 138.069, -120.027, 0, 0, 20.709, -131.505, 20.709, 48.4947
18, 600.00000, 138.027, -120.041, 0, 0, 22.6322, -131.519, 22.6322, 48.4807
18, 1200.00000, 138.009, -120.056, 0, 0, 23.8602, -131.534, 23.8602, 48.4656
18, 1800.00000, 138.027, -120.052, 0, 0, 23.1665, -131.531, 23.1665, 48.4695
18, 2400.00000, 137.99, -120.08, 0, 0, 22.7451, -131.558, 22.7451, 48.4419
18, 3000.00000, 137.984, -120.086, 0, 0, 23.1161, -131.564, 23.1161, 48.4362
19, 0.00000, 137.959, -120.08, 0, 0, 23.8623, -131.558, 23.8623, 48.4415
19, 600.00000, 137.951, -120.082, 0, 0, 24.2057, -131.561, 24.2057, 48.4392
19, 1200.00000, 137.933, -120.088, 0, 0, 25.0058, -131.566, 25.0058, 48.4335
19, 1800.00000, 137.909, -120.101, 0, 0, 26.0655, -131.579, 26.0655, 48.4211
19, 2400.00000, 137.928, -120.091, 0, 0, 25.0649, -131.569, 25.0649, 48.4307
19, 3000.00000, 137.946, -120.082, 0, 0, 24.0661, -131.561, 24.0661, 48.4394
20, 0.00000, 137.935, -120.089, 0, 0, 24.7727, -131.567, 24.7727, 48.433
20, 600.00000, 137.95, -120.072, 0, 0, 23.7026, -131.55, 23.7026, 48.4496
20, 1200.00000, 137.982, -120.065, 0, 0, 22.3286, -131.543, 22.3286, 48.4568
20, 1800.00000, 138.008, -120.082, 0, 0, 21.6467, -131.561, 21.6467, 48.4395
20, 2400.00000, 138.004, -120.097, 0, 0, 22.0578, -131.575, 22.0578, 48.4252
20, 3000.00000, 138.016, -120.086, 0, 0, 21.345, -131.564, 21.345, 48.4358
21, 0.00000, 138.047, -120.091, 0, 0, 20.262, -131.569, 20.262, 48.4308
21, 600.00000, 138.066, -120.094, 0, 0, 19.557, -131.572, 19.557, 48.428
21, 1200.00000, 138.097, -120.082, 0, 0, 18.1519, -131.561, 18.1519, 48.4394
21, 1800.00000, 138.101, -120.08, 0, 0, 17.7865, -131.558, 17.7865, 48.4417
21, 2400.00000, 138.108, -120.071, 0, 0, 17.2182, -131.549, 17.2182, 48.4506
21, 3000.00000, 138.125, -120.058, 0, 0, 16.2152, -131.537, 16.2152, 48.4631
22, 0.00000, 138.139, -120.049, 0, 0, 15.3166, -131.527, 15.3166, 48.4729
22, 600.00000, 138.156, -120.053, 0, 0, 14.8135, -131.531, 14.8135, 48.4686
22, 1200.00000, 138.177, -120.053, 0, 0, 13.9795, -131.531, 13.9795, 48.469
22, 1800.00000, 138.188, -120.048, 0, 0, 13.3896, -131.526, 13.3896, 48.4741
22, 2400.00000, 138.2, -120.043, 0, 0, 12.7859, -131.522, 12.7859, 48.4783
22, 3000.00000, 138.221, -120.04, 0, 0, 11.84, -131.519, 11.84, 48.4812
23, 0.00000, 138.241, -120.039, 0, 0, 10.9812, -131.518, 10.9812, 48.4823
23, 600.00000, 138.242, -120.037, 0, 0, 10.8206, -131.515, 10.8206, 48.4846
23, 1200.00000, 138.256, -120.039, 0, 0, 10.3115, -131.518, 10.3115, 48.4823
23, 1800.00000, 138.268, -120.033, 0, 0, 9.60442, -131.512, 9.60442, 48.4885
23, 2400.00000, 138.269, -120.031, 0, 0, 9.45329, -131.509, 9.45329, 48.4906
23, 3000.00000, 138.282, -120.038, 0, 0, 9.15547, -131.517, 9.15547, 48.4832
24, 0.00000, 138.295, -120.033, 0, 0, 8.49665, -131.511, 8.49665, 48.4891
